# Hz S RI R 50
50000 0.003871385 -0.001779122 0.982918679 -0.007073037 0 0 0 0
69798 0.003899266 -0.002642347 0.979172646 -0.024406701 0 0 0 0
89596 0.004030627 -0.003428485 0.977205276 -0.03625492 0 0 0 0
109394 0.003942585 -0.004254646 0.976467847 -0.044017907 0 0 0 0
129192 0.003802763 -0.005048234 0.976489186 -0.051020313 0 0 0 0
148990 0.00390933 -0.005895291 0.975797474 -0.056860908 0 0 0 0
168788 0.003753971 -0.006489125 0.975286245 -0.062034457 0 0 0 0
188586 0.003582422 -0.007362856 0.974947214 -0.066521823 0 0 0 0
208384 0.003616766 -0.00803532 0.974465668 -0.070559456 0 0 0 0
228182 0.003570446 -0.008832249 0.974200546 -0.074412956 0 0 0 0
247980 0.003393478 -0.009687843 0.973803639 -0.077892787 0 0 0 0
267778 0.00334849 -0.01041629 0.973425328 -0.081245057 0 0 0 0
287576 0.003261455 -0.011179548 0.973095238 -0.084379404 0 0 0 0
307374 0.003159997 -0.012013012 0.972824692 -0.087409719 0 0 0 0
327172 0.003127494 -0.0127824 0.972456872 -0.09031111 0 0 0 0
346970 0.002907752 -0.013534282 0.972287476 -0.093193218 0 0 0 0
366768 0.002843532 -0.014393311 0.971863567 -0.095896765 0 0 0 0
386566 0.002719457 -0.015046747 0.97153753 -0.098690226 0 0 0 0
406364 0.002623244 -0.015823103 0.971180856 -0.101382493 0 0 0 0
426162 0.002575858 -0.016560943 0.970858812 -0.103956505 0 0 0 0
445960 0.002338989 -0.017337089 0.970624327 -0.10650964 0 0 0 0
465758 0.00236744 -0.018089093 0.970184683 -0.109102547 0 0 0 0
485556 0.002185036 -0.018786285 0.969868659 -0.111646294 0 0 0 0
505354 0.002026122 -0.019559172 0.969678759 -0.11423473 0 0 0 0
525152 0.0019839 -0.020311258 0.969272553 -0.116580009 0 0 0 0
544950 0.001765491 -0.021059578 0.968867659 -0.119010105 0 0 0 0
564748 0.001639121 -0.021950742 0.968614578 -0.121369108 0 0 0 0
584546 0.001520335 -0.022580524 0.968256473 -0.123823896 0 0 0 0
604344 0.001222006 -0.023427452 0.968020081 -0.12614277 0 0 0 0
624142 0.001144545 -0.02422624 0.967645525 -0.128487527 0 0 0 0
643940 0.001018372 -0.024960782 0.967311024 -0.130872875 0 0 0 0
663738 0.000876936 -0.025690358 0.966943144 -0.133245557 0 0 0 0
683536 0.000655846 -0.026378739 0.966609656 -0.135588914 0 0 0 0
703334 0.000475411 -0.027294799 0.96624118 -0.137805104 0 0 0 0
723132 0.000357894 -0.0279699 0.965849518 -0.140167415 0 0 0 0
742930 0.000192451 -0.028721425 0.965481638 -0.142462655 0 0 0 0
762728 -7.704e-06 -0.029520254 0.965139865 -0.144704595 0 0 0 0
782526 -0.000218378 -0.030312612 0.964809179 -0.146937116 0 0 0 0
802324 -0.000341805 -0.031003281 0.964387357 -0.149296849 0 0 0 0
822122 -0.000531269 -0.031749311 0.964017689 -0.151515588 0 0 0 0
841920 -0.00079779 -0.032454576 0.963715314 -0.153818473 0 0 0 0
861718 -0.00087045 -0.033352117 0.963259875 -0.155990123 0 0 0 0
881516 -0.001115709 -0.034009627 0.962887823 -0.158289819 0 0 0 0
901314 -0.001263169 -0.034777954 0.962477028 -0.160541743 0 0 0 0
921112 -0.001540665 -0.035584647 0.962105572 -0.162688896 0 0 0 0
940910 -0.00168893 -0.036322526 0.961683988 -0.164971768 0 0 0 0
960708 -0.00195401 -0.037073466 0.961337625 -0.167159065 0 0 0 0
980506 -0.002175733 -0.037864286 0.960900485 -0.169350072 0 0 0 0
1000304 -0.002416959 -0.038574349 0.960544168 -0.171587049 0 0 0 0
1020102 -0.002694081 -0.039391312 0.960146188 -0.173792704 0 0 0 0
1039900 -0.002949464 -0.039993699 0.959767282 -0.176064729 0 0 0 0
1059698 -0.003142352 -0.040898796 0.959370732 -0.178123176 0 0 0 0
1079496 -0.003279683 -0.041621021 0.958869516 -0.180413633 0 0 0 0
1099294 -0.003506127 -0.042353857 0.958381056 -0.182595044 0 0 0 0
1119092 -0.003751892 -0.043116606 0.958002328 -0.184730425 0 0 0 0
1138890 -0.004051912 -0.043844398 0.957577168 -0.18697533 0 0 0 0
1158688 -0.004255368 -0.044638354 0.95716077 -0.189044147 0 0 0 0
1178486 -0.004469579 -0.045359719 0.956700563 -0.19127123 0 0 0 0
1198284 -0.004691129 -0.046122986 0.956166565 -0.193485185 0 0 0 0
1218082 -0.004957972 -0.046899367 0.955816566 -0.195678278 0 0 0 0
1237880 -0.005342361 -0.047468129 0.955358743 -0.197891846 0 0 0 0
1257678 -0.005547868 -0.04836186 0.954930961 -0.200034037 0 0 0 0
1277476 -0.005816551 -0.049113381 0.954453289 -0.202163964 0 0 0 0
1297274 -0.006084337 -0.049863439 0.953949391 -0.204313874 0 0 0 0
1317072 -0.00641717 -0.050584726 0.953551232 -0.206454515 0 0 0 0
1336870 -0.006723313 -0.051269952 0.953068494 -0.208613201 0 0 0 0
1356668 -0.006944612 -0.052092827 0.952593803 -0.210796415 0 0 0 0
1376466 -0.007223438 -0.0527733 0.952126204 -0.212910562 0 0 0 0
1396264 -0.007516881 -0.053558267 0.951658546 -0.215038448 0 0 0 0
1416062 -0.00781345 -0.054288245 0.951212465 -0.217173069 0 0 0 0
1435860 -0.008102091 -0.055042304 0.950703203 -0.219315409 0 0 0 0
1455658 -0.008364844 -0.055830027 0.950226545 -0.221465796 0 0 0 0
1475456 -0.008727137 -0.056384578 0.949726045 -0.223675563 0 0 0 0
1495254 -0.008998114 -0.057269278 0.949164271 -0.225788459 0 0 0 0
1515052 -0.00923369 -0.058017686 0.948685169 -0.22783035 0 0 0 0
1534850 -0.009735142 -0.058675307 0.948270499 -0.230025917 0 0 0 0
1554648 -0.00993269 -0.059594713 0.947718322 -0.232069134 0 0 0 0
1574446 -0.010312778 -0.060123682 0.947253644 -0.234327182 0 0 0 0
1594244 -0.010571486 -0.060840636 0.946593105 -0.236497119 0 0 0 0
1614042 -0.010881158 -0.061605177 0.946134567 -0.238560631 0 0 0 0
1633840 -0.011409654 -0.062323011 0.945789039 -0.24072954 0 0 0 0
1653638 -0.011573798 -0.063149459 0.945145368 -0.242743432 0 0 0 0
1673436 -0.012017621 -0.063772216 0.944601655 -0.244940608 0 0 0 0
1693234 -0.01227774 -0.064525984 0.944050192 -0.247005105 0 0 0 0
1713032 -0.012576906 -0.06535501 0.943456768 -0.249116882 0 0 0 0
1732830 -0.012952689 -0.065996155 0.942941069 -0.251268118 0 0 0 0
1752628 -0.013291118 -0.066653385 0.942339479 -0.253366857 0 0 0 0
1772426 -0.013618676 -0.06746149 0.941853821 -0.255489438 0 0 0 0
1792224 -0.014079461 -0.068048231 0.941309332 -0.257595151 0 0 0 0
1812022 -0.01443558 -0.068840034 0.9407503 -0.25979337 0 0 0 0
1831820 -0.014777534 -0.069559663 0.940199136 -0.261761158 0 0 0 0
1851618 -0.015209658 -0.070355094 0.939636826 -0.263940215 0 0 0 0
1871416 -0.015467642 -0.070937097 0.939079821 -0.266065031 0 0 0 0
1891214 -0.015918387 -0.071821361 0.938535392 -0.268059462 0 0 0 0
1911012 -0.016286587 -0.072415418 0.937971651 -0.270181119 0 0 0 0
1930810 -0.016653126 -0.073170997 0.93737924 -0.272227317 0 0 0 0
1950608 -0.016990236 -0.073804631 0.936733961 -0.274448633 0 0 0 0
1970406 -0.017429767 -0.074531473 0.936099052 -0.276563048 0 0 0 0
1990204 -0.017810408 -0.075191915 0.935561597 -0.278613388 0 0 0 0
2010002 -0.018148168 -0.076008573 0.934962272 -0.280674457 0 0 0 0
2029800 -0.01865901 -0.076600305 0.934372544 -0.282813608 0 0 0 0
2049598 -0.019129734 -0.077372059 0.933858692 -0.284907311 0 0 0 0
2069396 -0.019390916 -0.078111894 0.933236837 -0.286976784 0 0 0 0
2089194 -0.019788114 -0.078656256 0.93248111 -0.289153605 0 0 0 0
2108992 -0.020248472 -0.07943587 0.931983828 -0.291200459 0 0 0 0
2128790 -0.020612422 -0.080114267 0.931260585 -0.293253511 0 0 0 0
2148588 -0.021058009 -0.080874696 0.930686056 -0.295280754 0 0 0 0
2168386 -0.021544259 -0.081397935 0.930088937 -0.297650009 0 0 0 0
2188184 -0.021977473 -0.08216679 0.929518759 -0.299511134 0 0 0 0
2207982 -0.022465946 -0.0829636 0.92884767 -0.301542341 0 0 0 0
2227780 -0.022746587 -0.08362586 0.928134977 -0.303582787 0 0 0 0
2247578 -0.023241616 -0.084273412 0.927561283 -0.305651694 0 0 0 0
2267376 -0.023720296 -0.084961466 0.927030146 -0.307734906 0 0 0 0
2287174 -0.024122983 -0.085620142 0.926293492 -0.309779405 0 0 0 0
2306972 -0.024554928 -0.086359031 0.925723671 -0.311840236 0 0 0 0
2326770 -0.024950064 -0.087040662 0.924982666 -0.313941776 0 0 0 0
2346568 -0.025499686 -0.087697714 0.924425065 -0.315974116 0 0 0 0
2366366 -0.025936745 -0.08841329 0.923689603 -0.318095296 0 0 0 0
2386164 -0.026347644 -0.089088715 0.92307651 -0.320112884 0 0 0 0
2405962 -0.026824166 -0.089782923 0.922386348 -0.322192817 0 0 0 0
2425760 -0.027333784 -0.090395025 0.92174983 -0.324280172 0 0 0 0
2445558 -0.027829881 -0.091080576 0.920994639 -0.326408803 0 0 0 0
2465356 -0.02826268 -0.091700859 0.920379579 -0.328442782 0 0 0 0
2485154 -0.028685208 -0.092317536 0.919635236 -0.330579042 0 0 0 0
2504952 -0.029197063 -0.093020722 0.918977737 -0.332524061 0 0 0 0
2524750 -0.029820671 -0.093787781 0.918406605 -0.334525138 0 0 0 0
2544548 -0.030187161 -0.094381064 0.917621195 -0.336633622 0 0 0 0
2564346 -0.030653228 -0.095066957 0.916889309 -0.338665783 0 0 0 0
2584144 -0.031202154 -0.095666885 0.916258037 -0.340782672 0 0 0 0
2603942 -0.031667128 -0.096334144 0.915453553 -0.342839747 0 0 0 0
2623740 -0.03217139 -0.096928052 0.914831995 -0.344896882 0 0 0 0
2643538 -0.032746747 -0.097643986 0.914128363 -0.346892058 0 0 0 0
2663336 -0.033185496 -0.098297193 0.913439273 -0.348891764 0 0 0 0
2683134 -0.033649142 -0.098847679 0.912598669 -0.351073622 0 0 0 0
2702932 -0.034228529 -0.099593944 0.911925613 -0.353064835 0 0 0 0
2722730 -0.034765142 -0.100169256 0.911253869 -0.3552019 0 0 0 0
2742528 -0.035302523 -0.100763708 0.9105618 -0.357274591 0 0 0 0
2762326 -0.035699799 -0.101528108 0.909798502 -0.359237253 0 0 0 0
2782124 -0.036231864 -0.102116532 0.908903062 -0.361271947 0 0 0 0
2801922 -0.036893267 -0.10280317 0.908345222 -0.363246083 0 0 0 0
2821720 -0.037471044 -0.103398725 0.907566785 -0.365347713 0 0 0 0
2841518 -0.037856012 -0.104087382 0.906772375 -0.367346405 0 0 0 0
2861316 -0.038449566 -0.104754433 0.906065762 -0.369358062 0 0 0 0
2881114 -0.038991916 -0.105272345 0.905272483 -0.371543109 0 0 0 0
2900912 -0.039508059 -0.105853945 0.904495298 -0.373504519 0 0 0 0
2920710 -0.040042087 -0.106543757 0.90369606 -0.375502258 0 0 0 0
2940508 -0.040579348 -0.107172481 0.902964532 -0.377478748 0 0 0 0
2960306 -0.041108965 -0.107781521 0.902182877 -0.379642426 0 0 0 0
2980104 -0.041752565 -0.108374521 0.901459753 -0.381587564 0 0 0 0
2999902 -0.04231039 -0.108991026 0.900674462 -0.38367784 0 0 0 0
3019700 -0.042907416 -0.109553605 0.899833083 -0.385687649 0 0 0 0
3039498 -0.0434101 -0.110228553 0.89908415 -0.387747257 0 0 0 0
3059296 -0.044009014 -0.110723435 0.898333013 -0.389773786 0 0 0 0
3079094 -0.0445645 -0.111333735 0.897428274 -0.39183858 0 0 0 0
3098892 -0.045138835 -0.112022362 0.896698176 -0.393750697 0 0 0 0
3118690 -0.045766241 -0.11266154 0.895920991 -0.395815998 0 0 0 0
3138488 -0.046287439 -0.113128483 0.895112276 -0.397839039 0 0 0 0
3158286 -0.046807467 -0.113823264 0.894250512 -0.399895668 0 0 0 0
3178084 -0.047497406 -0.11432442 0.893489897 -0.401906639 0 0 0 0
3197882 -0.048074308 -0.114937387 0.892591238 -0.403862297 0 0 0 0
3217680 -0.048645392 -0.115512698 0.891848087 -0.405877739 0 0 0 0
3237478 -0.049307584 -0.116071298 0.891015946 -0.407878518 0 0 0 0
3257276 -0.04983177 -0.116742298 0.890155375 -0.409864872 0 0 0 0
3277074 -0.050339277 -0.117344237 0.88931483 -0.411826759 0 0 0 0
3296872 -0.05105894 -0.117862269 0.888531386 -0.414004951 0 0 0 0
3316670 -0.05174056 -0.118439897 0.887713551 -0.415921151 0 0 0 0
3336468 -0.052252069 -0.119060166 0.88685733 -0.417993783 0 0 0 0
3356266 -0.052919887 -0.119519837 0.88592869 -0.41996023 0 0 0 0
3376064 -0.053515311 -0.120158426 0.885134935 -0.421985357 0 0 0 0
3395862 -0.05406741 -0.120647527 0.884147644 -0.423984557 0 0 0 0
3415660 -0.054747056 -0.121227659 0.883359849 -0.426071017 0 0 0 0
3435458 -0.055364452 -0.121735334 0.882498085 -0.428073287 0 0 0 0
3455256 -0.056086871 -0.122360557 0.881644487 -0.43005675 0 0 0 0
3475054 -0.056630015 -0.122876003 0.880755543 -0.432104438 0 0 0 0
3494852 -0.057311341 -0.123503118 0.879900991 -0.434031575 0 0 0 0
3514650 -0.057844243 -0.123932607 0.87898308 -0.436091154 0 0 0 0
3534448 -0.058576323 -0.124518811 0.878088772 -0.438090801 0 0 0 0
3554246 -0.059220701 -0.125012382 0.877235233 -0.440121293 0 0 0 0
3574044 -0.059873767 -0.125653311 0.876346826 -0.442058861 0 0 0 0
3593842 -0.060549609 -0.126143723 0.875461995 -0.444091141 0 0 0 0
3613640 -0.06118115 -0.126635134 0.874519824 -0.446122527 0 0 0 0
3633438 -0.06177216 -0.127231344 0.873680114 -0.448064863 0 0 0 0
3653236 -0.062434654 -0.127740949 0.872674405 -0.450108379 0 0 0 0
3673034 -0.063121907 -0.128223165 0.871867179 -0.452115148 0 0 0 0
3692832 -0.063898719 -0.128755748 0.870966196 -0.454092621 0 0 0 0
3712630 -0.064420454 -0.129344567 0.869995474 -0.455960333 0 0 0 0
3732428 -0.065138801 -0.129833385 0.869049668 -0.457965791 0 0 0 0
3752226 -0.065808564 -0.130360275 0.86813265 -0.460085749 0 0 0 0
3772024 -0.066465459 -0.130747437 0.867193758 -0.46204698 0 0 0 0
3791822 -0.067079737 -0.13140437 0.866276979 -0.464009463 0 0 0 0
3811620 -0.06797479 -0.131820619 0.865360498 -0.465993016 0 0 0 0
3831418 -0.068517871 -0.132358059 0.864348411 -0.467953145 0 0 0 0
3851216 -0.069185651 -0.132814064 0.863424062 -0.469975233 0 0 0 0
3871014 -0.06994795 -0.133172065 0.862390875 -0.471959203 0 0 0 0
3890812 -0.070527933 -0.133776649 0.861480653 -0.473962724 0 0 0 0
3910610 -0.071240238 -0.134274214 0.860503733 -0.475880891 0 0 0 0
3930408 -0.071911998 -0.134782046 0.859503746 -0.47786802 0 0 0 0
3950206 -0.072651907 -0.135220021 0.858564436 -0.479851901 0 0 0 0
3970004 -0.073380418 -0.135767072 0.857653737 -0.481796741 0 0 0 0
3989802 -0.073928862 -0.136142 0.856572508 -0.483768194 0 0 0 0
4009600 -0.074781879 -0.136687517 0.855703592 -0.485659956 0 0 0 0
4029398 -0.075387492 -0.137111276 0.854623377 -0.487695753 0 0 0 0
4049196 -0.076171398 -0.137607023 0.853632628 -0.489757269 0 0 0 0
4068994 -0.076775424 -0.138028368 0.852650642 -0.491694986 0 0 0 0
4088792 -0.077586404 -0.138526663 0.851630926 -0.493707299 0 0 0 0
4108590 -0.078319683 -0.13894163 0.850699722 -0.495688557 0 0 0 0
4128388 -0.078947015 -0.139449253 0.849556386 -0.497616201 0 0 0 0
4148186 -0.079674616 -0.139847069 0.848613202 -0.499606907 0 0 0 0
4167984 -0.080426275 -0.140290066 0.847558796 -0.501552402 0 0 0 0
4187782 -0.081150017 -0.140499413 0.846495807 -0.503780245 0 0 0 0
4207580 -0.081961967 -0.141190811 0.845631241 -0.505435466 0 0 0 0
4227378 -0.08263757 -0.14167869 0.84453845 -0.507404685 0 0 0 0
4247176 -0.083316169 -0.142012521 0.843497872 -0.50936532 0 0 0 0
4266974 -0.084117524 -0.142514914 0.842513024 -0.511322438 0 0 0 0
4286772 -0.084753759 -0.142946779 0.84140253 -0.513187706 0 0 0 0
4306570 -0.085509292 -0.143357992 0.840318799 -0.515192985 0 0 0 0
4326368 -0.086284853 -0.143611818 0.839277088 -0.517171502 0 0 0 0
4346166 -0.086939848 -0.144203871 0.838182687 -0.519082069 0 0 0 0
4365964 -0.087693236 -0.144542917 0.837195575 -0.521034598 0 0 0 0
4385762 -0.08853957 -0.144954457 0.836173236 -0.523076295 0 0 0 0
4405560 -0.089318789 -0.145381748 0.83509767 -0.524951279 0 0 0 0
4425358 -0.08993604 -0.145824119 0.833999991 -0.526846051 0 0 0 0
4445156 -0.090803809 -0.146145343 0.83285439 -0.528822839 0 0 0 0
4464954 -0.091485768 -0.146630614 0.831795513 -0.530721306 0 0 0 0
4484752 -0.092247113 -0.146937668 0.83070296 -0.532657742 0 0 0 0
4504550 -0.093014948 -0.147361546 0.829662561 -0.534642517 0 0 0 0
4524348 -0.093752838 -0.1477831 0.828549683 -0.536460518 0 0 0 0
4544146 -0.094530455 -0.148084074 0.82745409 -0.538523316 0 0 0 0
4563944 -0.095425389 -0.148461312 0.826355934 -0.540461182 0 0 0 0
4583742 -0.096059411 -0.148864552 0.825285255 -0.542355775 0 0 0 0
4603540 -0.096801705 -0.14918296 0.824007749 -0.544261395 0 0 0 0
4623338 -0.097683727 -0.149616509 0.823028922 -0.546244382 0 0 0 0
4643136 -0.098577976 -0.149958148 0.821992099 -0.54812628 0 0 0 0
4662934 -0.099186837 -0.150348365 0.820744395 -0.550096929 0 0 0 0
4682732 -0.099898099 -0.15063849 0.819547772 -0.551879584 0 0 0 0
4702530 -0.100687459 -0.151122272 0.818517565 -0.553821086 0 0 0 0
4722328 -0.101407647 -0.151297375 0.817365646 -0.555793881 0 0 0 0
4742126 -0.10231287 -0.15172699 0.816229403 -0.557764291 0 0 0 0
4761924 -0.103125713 -0.152099952 0.815117955 -0.559580564 0 0 0 0
4781722 -0.103902995 -0.152474671 0.8140437 -0.561531662 0 0 0 0
4801520 -0.104750901 -0.152650773 0.812850415 -0.563471794 0 0 0 0
4821318 -0.105488531 -0.153085395 0.811671137 -0.565387964 0 0 0 0
4841116 -0.106234028 -0.153463274 0.810558021 -0.567242562 0 0 0 0
4860914 -0.107028961 -0.153713256 0.809365272 -0.56921339 0 0 0 0
4880712 -0.107893466 -0.154006093 0.808181166 -0.57109332 0 0 0 0
4900510 -0.108653828 -0.154417812 0.807091236 -0.573021829 0 0 0 0
4920308 -0.109343379 -0.154673144 0.805794 -0.574796617 0 0 0 0
4940106 -0.110231861 -0.154997423 0.804697513 -0.576811909 0 0 0 0
4959904 -0.111017979 -0.155373275 0.803480863 -0.578634023 0 0 0 0
4979702 -0.111814692 -0.155555158 0.802251756 -0.580557525 0 0 0 0
4999500 -0.112633988 -0.155804499 0.801097571 -0.582489728 0 0 0 0
5019298 -0.113440729 -0.156190529 0.799860239 -0.584338188 0 0 0 0
5039096 -0.114282652 -0.156594306 0.798769354 -0.586251437 0 0 0 0
5058894 -0.115010492 -0.156769871 0.797468423 -0.588106691 0 0 0 0
5078692 -0.115814991 -0.156966403 0.796224653 -0.590106189 0 0 0 0
5098490 -0.116678275 -0.157243967 0.795036792 -0.591925382 0 0 0 0
5118288 -0.117562733 -0.157679215 0.79391092 -0.593896329 0 0 0 0
5138086 -0.118372112 -0.15779455 0.792634665 -0.595758199 0 0 0 0
5157884 -0.119161479 -0.158112481 0.791390478 -0.597724795 0 0 0 0
5177682 -0.119909897 -0.158348038 0.790115177 -0.59947288 0 0 0 0
5197480 -0.120802544 -0.158708125 0.789035141 -0.601383447 0 0 0 0
5217278 -0.121554113 -0.158946231 0.787758708 -0.603222787 0 0 0 0
5237076 -0.122342459 -0.1591468 0.786422729 -0.605169773 0 0 0 0
5256874 -0.123263545 -0.159364953 0.785275697 -0.607083499 0 0 0 0
5276672 -0.124167814 -0.159678131 0.784054279 -0.608916401 0 0 0 0
5296470 -0.124761536 -0.159957543 0.782669723 -0.61073178 0 0 0 0
5316268 -0.125703364 -0.160068541 0.781452715 -0.612644016 0 0 0 0
5336066 -0.126519978 -0.160358756 0.780151188 -0.614588558 0 0 0 0
5355864 -0.12732461 -0.160458877 0.778865456 -0.616437494 0 0 0 0
5375662 -0.128227606 -0.160824701 0.777612328 -0.618365585 0 0 0 0
5395460 -0.129016593 -0.16110301 0.77638328 -0.620108842 0 0 0 0
5415258 -0.129834696 -0.161268889 0.775028288 -0.62211579 0 0 0 0
5435056 -0.130680918 -0.161539524 0.773815095 -0.623796701 0 0 0 0
5454854 -0.131599023 -0.161662369 0.772488355 -0.62588936 0 0 0 0
5474652 -0.132413208 -0.161803394 0.771122932 -0.627650797 0 0 0 0
5494450 -0.133329525 -0.162068843 0.769934237 -0.629479646 0 0 0 0
5514248 -0.134054735 -0.162316799 0.76858282 -0.631347537 0 0 0 0
5534046 -0.134866997 -0.162355154 0.767087876 -0.633307814 0 0 0 0
5553844 -0.135689243 -0.162625774 0.765846014 -0.635054409 0 0 0 0
5573642 -0.13656716 -0.162785425 0.764492869 -0.637092173 0 0 0 0
5593440 -0.1375155 -0.163029372 0.763255178 -0.638773262 0 0 0 0
5613238 -0.138326495 -0.163153856 0.761867523 -0.640749454 0 0 0 0
5633036 -0.13916178 -0.163286074 0.760472297 -0.642495036 0 0 0 0
5652834 -0.140078827 -0.16349256 0.759209513 -0.644450187 0 0 0 0
5672632 -0.140868559 -0.163618773 0.757829666 -0.646161973 0 0 0 0
5692430 -0.141757518 -0.163920581 0.756544589 -0.648055851 0 0 0 0
5712228 -0.142442956 -0.164093747 0.755018711 -0.649749755 0 0 0 0
5732026 -0.14344941 -0.164097785 0.753793776 -0.651789844 0 0 0 0
5751824 -0.144351586 -0.164337038 0.752445042 -0.65355879 0 0 0 0
5771622 -0.145141571 -0.164387643 0.751029491 -0.655428349 0 0 0 0
5791420 -0.146083399 -0.164586022 0.749650776 -0.657220005 0 0 0 0
5811218 -0.146837219 -0.164823085 0.748268425 -0.659029006 0 0 0 0
5831016 -0.147767797 -0.164837628 0.746840953 -0.660886108 0 0 0 0
5850814 -0.14852792 -0.164976954 0.745482981 -0.662731051 0 0 0 0
5870612 -0.149371057 -0.16512832 0.743981897 -0.664558649 0 0 0 0
5890410 -0.150342255 -0.165165632 0.742640078 -0.666332662 0 0 0 0
5910208 -0.15117672 -0.165394008 0.741220116 -0.668214142 0 0 0 0
5930006 -0.151943847 -0.165440171 0.739800691 -0.669897735 0 0 0 0
5949804 -0.152940735 -0.165555149 0.738406062 -0.671875119 0 0 0 0
5969602 -0.1536659 -0.165636107 0.736843883 -0.673527419 0 0 0 0
5989400 -0.154556915 -0.165770918 0.73548448 -0.675404548 0 0 0 0
