# Hz S RI R 50
1000000 0.027974942 0.024932226
1019704 0.028449341 0.02535968
1039408 0.028908699 0.025890108
1059112 0.029362952 0.026335552
1078816 0.029757976 0.026729974
1098520 0.030150549 0.027171891
1118224 0.030746009 0.027550399
1137928 0.031160447 0.028068048
1157632 0.031582914 0.028505532
1177336 0.03206529 0.02893644
1197040 0.032540496 0.029133468
1216744 0.033016372 0.029723709
1236448 0.033456575 0.03014516
1256152 0.033866122 0.030498351
1275856 0.034481514 0.030963199
1295560 0.034905496 0.031391382
1315264 0.035259611 0.031680192
1334968 0.035807903 0.032075073
1354672 0.036300502 0.032471995
1374376 0.036766629 0.032961968
1394080 0.037312861 0.033223539
1413784 0.037811197 0.033706672
1433488 0.038275249 0.034091793
1453192 0.038843896 0.034330252
1472896 0.039336308 0.034729644
1492600 0.03972892 0.035036284
1512304 0.040243387 0.035479336
1532008 0.040793061 0.035804107
1551712 0.041365105 0.036168817
1571416 0.041744414 0.036522399
1591120 0.042231995 0.036758683
1610824 0.042889583 0.037136644
1630528 0.043347898 0.037507373
1650232 0.043823912 0.037816178
1669936 0.044419195 0.038087397
1689640 0.044934581 0.038433466
1709344 0.045385591 0.038780722
1729048 0.045961122 0.039031527
1748752 0.0464654 0.039323523
1768456 0.047001924 0.039649847
1788160 0.047592505 0.039843436
1807864 0.048168383 0.040221281
1827568 0.048547089 0.040535911
1847272 0.049172006 0.04076641
1866976 0.049652725 0.041148446
1886680 0.050273943 0.041240502
1906384 0.050869531 0.041593197
1926088 0.05135766 0.041881337
1945792 0.051853299 0.042124677
1965496 0.052453499 0.042326681
1985200 0.053101129 0.042588412
2004904 0.053532343 0.042927403
2024608 0.053985353 0.043134238
2044312 0.054631311 0.043363738
2064016 0.055080659 0.043648239
2083720 0.055708169 0.043812222
2103424 0.056297477 0.044083252
2123128 0.056785419 0.044267639
2142832 0.057375032 0.0444603
2162536 0.057939384 0.044704906
2182240 0.058482598 0.044935572
2201944 0.059074867 0.04510558
2221648 0.059657078 0.045260827
2241352 0.060192607 0.045596122
2261056 0.060727413 0.045679084
2280760 0.061376627 0.045908793
2300464 0.061867024 0.046073894
2320168 0.062383487 0.046209827
2339872 0.063012212 0.046372942
2359576 0.063591174 0.046595659
2379280 0.064209453 0.046779241
2398984 0.064649373 0.046934887
2418688 0.065233834 0.04698297
2438392 0.065841309 0.047251679
2458096 0.066257603 0.047328412
2477800 0.066986903 0.047493506
2497504 0.067508369 0.047592557
2517208 0.068087235 0.047746885
2536912 0.06868077 0.047923456
2556616 0.069178327 0.048001967
2576320 0.069847136 0.04806691
2596024 0.070461079 0.048242315
2615728 0.070964843 0.048388246
2635432 0.071540758 0.048385214
2655136 0.072094395 0.048635151
2674840 0.072662882 0.048635307
2694544 0.073248408 0.0487722
2714248 0.073892362 0.048869766
2733952 0.074396908 0.048956185
2753656 0.074978739 0.048994481
2773360 0.075574785 0.049032837
2793064 0.076111763 0.049239598
2812768 0.076647602 0.049242943
2832472 0.077258408 0.049352094
2852176 0.077857926 0.049407903
2871880 0.078388445 0.049467716
2891584 0.07901971 0.049475442
2911288 0.079512715 0.049585383
2930992 0.080058448 0.049542993
2950696 0.080691173 0.049638856
2970400 0.08122944 0.049703653
2990104 0.081921055 0.049909934
3009808 0.08239302 0.049809403
3029512 0.082935988 0.049810104
3049216 0.083503842 0.049847196
3068920 0.084072686 0.049816437
3088624 0.08465138 0.049867201
3108328 0.085238575 0.049844697
3128032 0.085782758 0.049838211
3147736 0.0862924 0.049867656
3167440 0.086902745 0.049866579
3187144 0.087444484 0.049872022
3206848 0.088066987 0.049824927
3226552 0.088597312 0.04988265
3246256 0.089189283 0.049782559
3265960 0.089642509 0.049808669
3285664 0.090261943 0.049811009
3305368 0.090806163 0.049764066
3325072 0.091385938 0.049733225
3344776 0.091970704 0.049693617
3364480 0.092470906 0.049640141
3384184 0.093028247 0.049660705
3403888 0.093606874 0.049576655
3423592 0.094152331 0.049592558
3443296 0.094751559 0.049533318
3463000 0.095324479 0.04945974
3482704 0.095782868 0.049407787
3502408 0.096376024 0.04931664
3522112 0.09694761 0.049236431
3541816 0.097468793 0.049231391
3561520 0.098020821 0.049047637
3581224 0.098604597 0.049071967
3600928 0.099108874 0.048985645
3620632 0.099668383 0.048898283
3640336 0.100083217 0.048815071
3660040 0.10072714 0.048676025
3679744 0.101311653 0.04864652
3699448 0.101757109 0.048555467
3719152 0.102237373 0.048388872
3738856 0.10287676 0.048312786
3758560 0.103379197 0.048208046
3778264 0.103994645 0.048122256
3797968 0.104468196 0.048024907
3817672 0.105000145 0.047914918
3837376 0.105601251 0.047791447
3857080 0.1060469 0.047663748
3876784 0.10664355 0.047506596
3896488 0.107043683 0.047390762
3916192 0.107589699 0.047259345
3935896 0.108157597 0.047148525
3955600 0.108638301 0.047040652
3975304 0.109181337 0.046829778
3995008 0.109795503 0.046795561
4014712 0.110241025 0.046614829
4034416 0.110693946 0.046359017
4054120 0.111279778 0.046274874
4073824 0.111763745 0.046099875
4093528 0.1122436 0.045988399
4113232 0.11279691 0.045812774
4132936 0.113287009 0.045647755
4152640 0.113902792 0.045514076
4172344 0.114305652 0.04537839
4192048 0.114861533 0.045147713
4211752 0.115322969 0.044997856
4231456 0.115856096 0.044837161
4251160 0.116285935 0.044652525
4270864 0.116801798 0.044402655
4290568 0.117267534 0.044273756
4310272 0.117752842 0.04402785
4329976 0.118240483 0.043858356
4349680 0.118825383 0.043717809
4369384 0.119304031 0.04348566
4389088 0.119804926 0.043316699
4408792 0.120207428 0.043092288
4428496 0.120762832 0.042846843
4448200 0.121165007 0.042680166
4467904 0.121616125 0.042490828
4487608 0.122100241 0.042203206
4507312 0.122633449 0.042084287
4527016 0.123081453 0.04183723
4546720 0.123591385 0.041642628
4566424 0.124061711 0.041409596
4586128 0.124519467 0.041148256
4605832 0.12493766 0.041009288
4625536 0.125452965 0.040732983
4645240 0.125924482 0.040509123
4664944 0.126396179 0.040253203
4684648 0.126793861 0.04002263
4704352 0.127303734 0.039785012
4724056 0.127722367 0.039523571
4743760 0.128211468 0.039317782
4763464 0.128660142 0.03907993
4783168 0.12909922 0.038858074
4802872 0.129524827 0.038590651
4822576 0.129949182 0.038379698
4842280 0.130403935 0.038030732
4861984 0.130832478 0.037866607
4881688 0.13129647 0.037557359
4901392 0.131737276 0.037369582
4921096 0.132161304 0.036997132
4940800 0.132588937 0.036717843
4960504 0.133062452 0.036560736
4980208 0.133486494 0.036376543
4999912 0.133864387 0.036027319
5019616 0.134299471 0.035753004
5039320 0.13473919 0.0353932
5059024 0.135177627 0.035174418
5078728 0.135549098 0.034923046
5098432 0.136048987 0.034571446
5118136 0.136393561 0.034369543
5137840 0.136846303 0.034045036
5157544 0.137208595 0.033822413
5177248 0.137677654 0.033515393
5196952 0.13811995 0.033177629
5216656 0.138468831 0.032913148
5236360 0.138886541 0.032598163
5256064 0.139304533 0.032257273
5275768 0.139790549 0.03203186
5295472 0.140092015 0.031683579
5315176 0.140496566 0.031454637
5334880 0.140933573 0.03112334
5354584 0.14137955 0.030867243
5374288 0.141672641 0.030586447
5393992 0.142023965 0.030249696
5413696 0.142457976 0.029894798
5433400 0.142816156 0.029562266
5453104 0.14321886 0.029301494
5472808 0.143580064 0.028997585
5492512 0.143995717 0.028698367
5512216 0.144429728 0.028383046
5531920 0.144756108 0.028096083
5551624 0.145177915 0.027662204
5571328 0.145527452 0.027405682
5591032 0.145824536 0.027114374
5610736 0.146250501 0.026740297
5630440 0.146647185 0.026423148
5650144 0.146949812 0.026106886
5669848 0.147348269 0.025805898
5689552 0.147725448 0.025477005
5709256 0.148083612 0.025119239
5728960 0.148511767 0.024748845
5748664 0.148766472 0.024483673
5768368 0.149117767 0.024109853
5788072 0.149509876 0.023812664
5807776 0.14984475 0.023422084
5827480 0.150207132 0.02312014
5847184 0.150542855 0.022759415
5866888 0.150869116 0.022419409
5886592 0.151216819 0.02209296
5906296 0.151559114 0.021696487
5926000 0.151944935 0.021345939
5945704 0.152250856 0.021085496
5965408 0.15257579 0.020674798
5985112 0.152902871 0.02030822
6004816 0.153235003 0.020009238
6024520 0.153531253 0.019670255
6044224 0.153867095 0.019187161
6063928 0.154272377 0.018877344
6083632 0.154513895 0.018571345
6103336 0.154871895 0.018213678
6123040 0.155124738 0.017818307
6142744 0.155489414 0.017485857
6162448 0.155810028 0.017099484
6182152 0.156111121 0.016751674
6201856 0.156413838 0.016340561
6221560 0.156776905 0.015995737
6241264 0.157079637 0.015670435
6260968 0.1573558 0.015248595
6280672 0.157645285 0.014906236
6300376 0.157930597 0.014498551
6320080 0.158226326 0.014102561
6339784 0.15860702 0.013807497
6359488 0.158843204 0.013398395
6379192 0.159163087 0.013039574
6398896 0.159435778 0.012579326
6418600 0.159794196 0.012206015
6438304 0.160009905 0.011851986
6458008 0.160332918 0.011468301
6477712 0.160579785 0.011108485
6497416 0.160870268 0.010708187
6517120 0.161165654 0.010320018
6536824 0.161493867 0.009945275
6556528 0.161732092 0.009549791
6576232 0.162011176 0.009223616
6595936 0.162251949 0.008760829
6615640 0.162546843 0.008358933
6635344 0.162836998 0.00804382
6655048 0.163123443 0.007677682
6674752 0.163376256 0.007319846
6694456 0.163674727 0.006987656
6714160 0.163928896 0.006595292
6733864 0.164209961 0.006211251
6753568 0.164436534 0.005836479
6773272 0.164784401 0.005427819
6792976 0.164995446 0.005067465
6812680 0.165259554 0.004665344
6832384 0.165527209 0.004249028
6852088 0.165736556 0.003920205
6871792 0.165977463 0.003489134
6891496 0.166222661 0.00309755
6911200 0.166309446 0.00264446
6930904 0.166639387 0.002260057
6950608 0.166787385 0.001939084
6970312 0.166950136 0.001530993
6990016 0.16714707 0.001097759
7009720 0.167364388 0.000745175
7029424 0.167556881 0.000315316
7049128 0.1677832 -5.2057e-05
7068832 0.167953521 -0.000464202
7088536 0.168212369 -0.00091326
7108240 0.168437749 -0.001258955
7127944 0.168627813 -0.001621415
7147648 0.168791368 -0.002090033
7167352 0.169024944 -0.002437814
7187056 0.169238418 -0.002830103
7206760 0.169493511 -0.003262688
7226464 0.169647768 -0.003685025
7246168 0.169858396 -0.004077173
7265872 0.170052424 -0.004474191
7285576 0.170207634 -0.004927312
7305280 0.170431166 -0.005307959
7324984 0.170611083 -0.005733361
7344688 0.170807644 -0.006131217
7364392 0.171074733 -0.006549953
7384096 0.171245455 -0.006945851
7403800 0.171385556 -0.007391608
7423504 0.171604797 -0.007814415
7443208 0.171798869 -0.008220843
7462912 0.171927079 -0.008690245
7482616 0.172149538 -0.009027479
7502320 0.172326296 -0.009381584
7522024 0.172511056 -0.009860119
7541728 0.172695636 -0.010297725
7561432 0.172868415 -0.010710377
7581136 0.173062548 -0.011072355
7600840 0.173212513 -0.011493934
7620544 0.173324108 -0.011946777
7640248 0.173610329 -0.012308772
7659952 0.173752695 -0.012709942
7679656 0.173918351 -0.013177582
7699360 0.174081817 -0.01358455
7719064 0.174236625 -0.014036922
7738768 0.174431279 -0.014472974
7758472 0.174511089 -0.014841069
7778176 0.17471303 -0.015255725
7797880 0.174945801 -0.015662502
7817584 0.175013735 -0.016098845
7837288 0.175199151 -0.016496278
7856992 0.175356253 -0.016935355
7876696 0.175516486 -0.017355209
7896400 0.175669565 -0.017850508
7916104 0.175817742 -0.018199669
7935808 0.175907298 -0.018684869
7955512 0.176050841 -0.019020337
7975216 0.176201447 -0.019482448
7994920 0.176346629 -0.019929651
8014624 0.176479578 -0.020296143
8034328 0.176627501 -0.020749371
8054032 0.176794692 -0.021164683
8073736 0.176903545 -0.021569553
8093440 0.177003219 -0.022062767
8113144 0.177177563 -0.022456156
8132848 0.177235394 -0.022899007
8152552 0.177365839 -0.023268489
8172256 0.17751871 -0.023718895
8191960 0.177623733 -0.024101939
8211664 0.177738368 -0.024576153
8231368 0.177877604 -0.024995898
8251072 0.17801015 -0.025461789
8270776 0.178134173 -0.025866145
8290480 0.178203478 -0.026313211
8310184 0.178376406 -0.026693154
8329888 0.178458571 -0.027114523
8349592 0.178549394 -0.027563536
8369296 0.178639635 -0.028020339
8389000 0.178777292 -0.02850257
8408704 0.178936794 -0.028869742
8428408 0.178967922 -0.029330031
8448112 0.179044738 -0.02977191
8467816 0.17918007 -0.030169032
8487520 0.179254293 -0.030587883
8507224 0.179369941 -0.031047945
8526928 0.179475307 -0.031503785
8546632 0.17952159 -0.031816869
8566336 0.179657474 -0.03231249
8586040 0.179736271 -0.032747466
8605744 0.179846629 -0.033203236
8625448 0.179940879 -0.033577993
8645152 0.180033221 -0.0340451
8664856 0.180093735 -0.034529719
8684560 0.180167272 -0.034906484
8704264 0.180242851 -0.035300683
8723968 0.180280357 -0.035746935
8743672 0.180376663 -0.036231525
8763376 0.180487215 -0.036672659
8783080 0.18058665 -0.037076938
8802784 0.180622816 -0.037519447
8822488 0.180673241 -0.037912122
8842192 0.180733636 -0.03834556
8861896 0.180828422 -0.038795422
8881600 0.180846005 -0.039226654
8901304 0.180979907 -0.039621062
8921008 0.180991768 -0.040080923
8940712 0.181073069 -0.04051993
8960416 0.181152105 -0.040999758
8980120 0.181205317 -0.041384551
8999824 0.181202188 -0.041837826
9019528 0.181308478 -0.042272392
9039232 0.181353449 -0.04272155
9058936 0.181378066 -0.043107982
9078640 0.18142426 -0.04357621
9098344 0.181458413 -0.044022928
9118048 0.181555405 -0.04441731
9137752 0.18157579 -0.044812873
9157456 0.181641146 -0.045270029
9177160 0.181672483 -0.045687396
9196864 0.181734874 -0.046158742
9216568 0.181721419 -0.046568866
9236272 0.181783154 -0.046980869
9255976 0.18185088 -0.047469612
9275680 0.181869536 -0.047878801
9295384 0.181787669 -0.048305265
9315088 0.181868806 -0.048728737
9334792 0.181978106 -0.049233119
9354496 0.181970566 -0.049633238
9374200 0.182001978 -0.050040911
9393904 0.1820008 -0.050478052
9413608 0.182071447 -0.050906568
9433312 0.182062849 -0.051345892
9453016 0.182074755 -0.051832031
9472720 0.18214485 -0.052231401
9492424 0.182116806 -0.052581917
9512128 0.182160764 -0.053105451
9531832 0.182134717 -0.053523436
9551536 0.18218179 -0.053962383
9571240 0.182219639 -0.054397497
9590944 0.182152196 -0.054784584
9610648 0.182243257 -0.055216342
9630352 0.182163313 -0.055701285
9650056 0.182218343 -0.056122314
9669760 0.182244583 -0.056593433
9689464 0.182208523 -0.056990362
9709168 0.182238206 -0.057410676
9728872 0.182204842 -0.057850174
9748576 0.182184964 -0.058291886
9768280 0.182199358 -0.058772336
9787984 0.182150498 -0.059228956
9807688 0.182222366 -0.059538405
9827392 0.182195112 -0.060045238
9847096 0.182132109 -0.0604662
9866800 0.182130888 -0.060927812
9886504 0.18212904 -0.061317741
9906208 0.182106629 -0.061765819
9925912 0.182097122 -0.062173511
9945616 0.1820627 -0.062631279
9965320 0.182086721 -0.063069932
9985024 0.182052701 -0.063582822
10004728 0.182056516 -0.063956864
10024432 0.181977003 -0.064354673
10044136 0.181981772 -0.06479825
10063840 0.181949302 -0.065251268
10083544 0.18190366 -0.065628275
10103248 0.181868523 -0.066098369
10122952 0.181906536 -0.06654673
10142656 0.181864276 -0.066971272
10162360 0.181836813 -0.067399121
10182064 0.181762009 -0.067834027
10201768 0.18172723 -0.068263024
10221472 0.181687355 -0.068697132
10241176 0.181632161 -0.069112956
10260880 0.181601837 -0.069591537
10280584 0.181567296 -0.069959916
10300288 0.181547641 -0.070432268
10319992 0.181483343 -0.070829421
10339696 0.181403249 -0.071322299
10359400 0.1813872 -0.071728765
10379104 0.18133299 -0.072116144
10398808 0.181297689 -0.072625018
10418512 0.181257799 -0.073052816
10438216 0.181195363 -0.073436088
10457920 0.181111618 -0.073919631
10477624 0.181083485 -0.074307277
10497328 0.180985122 -0.074773617
10517032 0.180979341 -0.075185447
10536736 0.180838242 -0.075591564
10556440 0.180825725 -0.075987376
10576144 0.180717229 -0.076494187
10595848 0.180674344 -0.076874174
10615552 0.180657982 -0.077342547
10635256 0.180539146 -0.07773564
10654960 0.180465161 -0.078228056
10674664 0.180427238 -0.078568935
10694368 0.18035674 -0.079066179
10714072 0.180246651 -0.079434037
10733776 0.180157333 -0.079932428
10753480 0.180093631 -0.080281801
10773184 0.180006667 -0.08077199
10792888 0.17994672 -0.081140264
10812592 0.179850831 -0.081620939
10832296 0.179841354 -0.081989869
10852000 0.179621666 -0.082456059
10871704 0.179637774 -0.082930445
10891408 0.1795789 -0.083278276
10911112 0.179450005 -0.083717346
10930816 0.179380178 -0.084111087
10950520 0.179213896 -0.084557063
10970224 0.179182231 -0.084990359
10989928 0.179041624 -0.085457623
11009632 0.178984269 -0.08583489
11029336 0.178912043 -0.086289696
11049040 0.178753331 -0.086724139
11068744 0.178679421 -0.087136991
11088448 0.17861855 -0.087645314
11108152 0.178482964 -0.087949968
11127856 0.178337663 -0.088377349
11147560 0.178226336 -0.088835828
11167264 0.178165405 -0.089259944
11186968 0.178059056 -0.089717239
11206672 0.178035035 -0.090087607
11226376 0.177779108 -0.090531833
11246080 0.177704751 -0.091000355
11265784 0.177609831 -0.091310404
11285488 0.177462965 -0.091778911
11305192 0.177295163 -0.092201523
11324896 0.1772677 -0.092603094
11344600 0.177097886 -0.093067541
11364304 0.177066102 -0.093410313
11384008 0.17687048 -0.093880936
11403712 0.176735818 -0.094303093
11423416 0.176642477 -0.094675101
11443120 0.176521077 -0.095157481
11462824 0.176369205 -0.095536485
11482528 0.176262825 -0.095971398
11502232 0.176087841 -0.096315376
11521936 0.175925046 -0.096784681
11541640 0.17583318 -0.097216814
11561344 0.175731912 -0.09761209
11581048 0.175571203 -0.098014764
11600752 0.175455868 -0.098419092
11620456 0.175281211 -0.098880499
11640160 0.175206959 -0.09929379
11659864 0.175006657 -0.0996854
11679568 0.174869194 -0.100114062
11699272 0.17467764 -0.100519306
11718976 0.174540609 -0.100979588
11738680 0.174382776 -0.101380273
11758384 0.17433533 -0.101800456
11778088 0.174146994 -0.102170899
11797792 0.173992082 -0.102620065
11817496 0.173832371 -0.102973483
11837200 0.173691168 -0.103458784
11856904 0.17350614 -0.103869222
11876608 0.173316478 -0.104313641
11896312 0.173223853 -0.104637794
11916016 0.17305611 -0.105032876
11935720 0.172851651 -0.105453789
11955424 0.172678247 -0.105881586
11975128 0.172522127 -0.10627406
11994832 0.172376915 -0.106676712
12014536 0.172186404 -0.107112012
12034240 0.172060161 -0.107563331
12053944 0.17184849 -0.107935577
12073648 0.171684518 -0.108320415
12093352 0.171480447 -0.108723305
12113056 0.171351715 -0.109151393
12132760 0.171129539 -0.109557054
12152464 0.171019047 -0.109938174
12172168 0.170799016 -0.110396683
12191872 0.170632824 -0.110775925
12211576 0.170433178 -0.111153379
12231280 0.170309185 -0.111653134
12250984 0.170078665 -0.111952908
12270688 0.169852524 -0.112363964
12290392 0.169661477 -0.112794198
12310096 0.169504806 -0.11316052
12329800 0.169258236 -0.113582529
12349504 0.169124096 -0.114009514
12369208 0.168970704 -0.114372663
12388912 0.16871111 -0.11476621
12408616 0.168537586 -0.115249618
12428320 0.168319925 -0.115568228
12448024 0.168139666 -0.116011545
12467728 0.167928367 -0.116436414
12487432 0.167764022 -0.116768777
12507136 0.167567536 -0.117201834
12526840 0.16729018 -0.117580212
12546544 0.167143732 -0.117983259
12566248 0.166993409 -0.118340447
12585952 0.166676044 -0.118697963
12605656 0.166444644 -0.119191043
12625360 0.166273415 -0.119536422
12645064 0.166026949 -0.119886122
12664768 0.165835678 -0.120371334
12684472 0.165657877 -0.120700858
12704176 0.165421694 -0.121104136
12723880 0.165170326 -0.121544279
12743584 0.164989262 -0.121891118
12763288 0.164771154 -0.122274957
12782992 0.164494469 -0.122674472
12802696 0.164349406 -0.123044036
12822400 0.164004832 -0.123562045
12842104 0.163834467 -0.123844288
12861808 0.163612961 -0.124180532
12881512 0.163359552 -0.124652668
12901216 0.163144454 -0.125032186
12920920 0.162961855 -0.125407367
12940624 0.162696793 -0.125781729
12960328 0.162414401 -0.126191899
12980032 0.162172704 -0.126563727
12999736 0.161883249 -0.126956611
13019440 0.16172561 -0.127336814
13039144 0.161492705 -0.127687126
13058848 0.161199122 -0.1280808
13078552 0.160916522 -0.128412529
